Circuit: * D:\VUB\MA1\Analog Electronics\final project\LTSpice\final_project.asc

Warning: No WPE as none of SCA, SCB, SCC, SC is given and/or SC not positive.
Warning: LTspice uses BSIM4 version 4.6.1. Your model specified an unrecognized version number: 4.5000e+00
Warning:  Acde = 0.0146993 is too small.
Warning: No WPE as none of SCA, SCB, SCC, SC is given and/or SC not positive.
Warning: LTspice uses BSIM4 version 4.6.1. Your model specified an unrecognized version number: 4.5000e+00
Warning:  Acde = 0.0146993 is too small.
Warning: No WPE as none of SCA, SCB, SCC, SC is given and/or SC not positive.
Warning: LTspice uses BSIM4 version 4.6.1. Your model specified an unrecognized version number: 4.5000e+00
Warning:  Acde = 0.0146993 is too small.
Warning: No WPE as none of SCA, SCB, SCC, SC is given and/or SC not positive.
Warning: LTspice uses BSIM4 version 4.6.1. Your model specified an unrecognized version number: 4.5000e+00
Warning: No WPE as none of SCA, SCB, SCC, SC is given and/or SC not positive.
Warning: LTspice uses BSIM4 version 4.6.1. Your model specified an unrecognized version number: 4.5000e+00
Warning: No WPE as none of SCA, SCB, SCC, SC is given and/or SC not positive.
Warning: LTspice uses BSIM4 version 4.6.1. Your model specified an unrecognized version number: 4.5000e+00
Warning: No WPE as none of SCA, SCB, SCC, SC is given and/or SC not positive.
Warning: LTspice uses BSIM4 version 4.6.1. Your model specified an unrecognized version number: 4.5000e+00
Warning: No WPE as none of SCA, SCB, SCC, SC is given and/or SC not positive.
Warning: LTspice uses BSIM4 version 4.6.1. Your model specified an unrecognized version number: 4.5000e+00
Direct Newton iteration for .op point succeeded.
Semiconductor Device Operating Points:
                        --- BSIM4 MOSFETS ---
Name:      mn6         mn3         mn4         mp5         mp2
Model: n_11_sprvt  n_11_sprvt  n_11_sprvt  p_11_sprvt  p_11_sprvt
Id:      1.55e-07    3.53e-07    3.53e-07   -1.55e-07   -3.53e-07
Vgs:     9.95e-02    9.89e-02    9.89e-02   -1.35e-01   -1.40e-01
Vds:     8.87e-01    9.89e-02    9.95e-02   -2.13e-01   -6.41e-01
Vbs:     0.00e+00    0.00e+00    0.00e+00    0.00e+00    0.00e+00
Vth:     3.84e-01    1.08e-01    1.08e-01   -2.29e-01   -2.09e-01
Vdsat:   4.58e-02    3.25e-02    3.25e-02   -4.02e-02   -4.07e-02
Gm:      3.79e-06    1.00e-05    1.01e-05    4.37e-06    9.56e-06
Gds:     3.98e-07    6.75e-07    6.71e-07    1.44e-07    1.21e-07
Gmb      2.94e-07    7.52e-07    7.53e-07    4.06e-07    9.25e-07
Cbd:     2.24e-16    2.21e-15    2.21e-15    2.09e-15    3.21e-15
Cbs:     3.06e-16    2.32e-15    2.32e-15    2.55e-15    5.09e-15

Name:      mp1         mp7         mp8
Model: p_11_sprvt  p_11_sprvt  p_11_sprvt
Id:     -3.53e-07   -7.07e-07   -1.41e-07
Vgs:    -1.40e-01   -1.35e-01   -1.35e-01
Vds:    -6.42e-01   -3.60e-01   -1.35e-01
Vbs:     0.00e+00    0.00e+00    0.00e+00
Vth:    -2.09e-01   -3.75e-01   -2.29e-01
Vdsat:  -4.07e-02   -4.33e-02   -4.03e-02
Gm:      9.56e-06    1.61e-05    3.98e-06
Gds:     1.21e-07    1.82e-06    2.39e-07
Gmb      9.25e-07    1.27e-06    3.66e-07
Cbd:     3.21e-15    1.89e-15    2.23e-15
Cbs:     5.09e-15    2.56e-15    2.55e-15



Date: Sat Dec 24 15:37:37 2022
Total elapsed time: 0.079 seconds.

tnom = 27
temp = 27
method = trap
totiter = 8
traniter = 0
tranpoints = 0
accept = 0
rejected = 0
matrix size = 30
fillins = 14
solver = Normal
Matrix Compiler1:     158 opcodes
Matrix Compiler2: 3.02 KB object code size
