Circuit: * D:\VUB\MA1\Analog Electronics\Analog_electronics_project\LTSpice\final_project.asc

Warning: No WPE as none of SCA, SCB, SCC, SC is given and/or SC not positive.
Warning: LTspice uses BSIM4 version 4.6.1. Your model specified an unrecognized version number: 4.5000e+00
Warning:  Acde = 0.0146993 is too small.
Warning: No WPE as none of SCA, SCB, SCC, SC is given and/or SC not positive.
Warning: LTspice uses BSIM4 version 4.6.1. Your model specified an unrecognized version number: 4.5000e+00
Warning:  Acde = 0.0146993 is too small.
Warning: No WPE as none of SCA, SCB, SCC, SC is given and/or SC not positive.
Warning: LTspice uses BSIM4 version 4.6.1. Your model specified an unrecognized version number: 4.5000e+00
Warning:  Acde = 0.0146993 is too small.
Warning: No WPE as none of SCA, SCB, SCC, SC is given and/or SC not positive.
Warning: LTspice uses BSIM4 version 4.6.1. Your model specified an unrecognized version number: 4.5000e+00
Warning: No WPE as none of SCA, SCB, SCC, SC is given and/or SC not positive.
Warning: LTspice uses BSIM4 version 4.6.1. Your model specified an unrecognized version number: 4.5000e+00
Warning: No WPE as none of SCA, SCB, SCC, SC is given and/or SC not positive.
Warning: LTspice uses BSIM4 version 4.6.1. Your model specified an unrecognized version number: 4.5000e+00
Warning: No WPE as none of SCA, SCB, SCC, SC is given and/or SC not positive.
Warning: LTspice uses BSIM4 version 4.6.1. Your model specified an unrecognized version number: 4.5000e+00
Warning: No WPE as none of SCA, SCB, SCC, SC is given and/or SC not positive.
Warning: LTspice uses BSIM4 version 4.6.1. Your model specified an unrecognized version number: 4.5000e+00
Direct Newton iteration for .op point succeeded.
Semiconductor Device Operating Points:
                        --- BSIM4 MOSFETS ---
Name:      mn6         mn3         mn4         mp5         mp2
Model: n_11_sprvt  n_11_sprvt  n_11_sprvt  p_11_sprvt  p_11_sprvt
Id:      6.53e-05    1.11e-06    1.10e-06   -6.53e-05   -1.11e-06
Vgs:     3.26e-01    3.43e-01    3.43e-01   -5.42e-01   -1.88e-01
Vds:     5.52e-01    3.43e-01    3.26e-01   -5.48e-01   -4.61e-01
Vbs:     0.00e+00    0.00e+00    0.00e+00    0.00e+00    0.00e+00
Vth:     7.86e-02    5.90e-02    5.87e-02   -2.08e-01   -2.07e-01
Vdsat:   1.37e-01    1.98e-01    1.98e-01   -2.81e-01   -5.03e-02
Gm:      7.54e-04    1.02e-05    1.02e-05    3.42e-04    2.65e-05
Gds:     2.13e-05    4.43e-07    4.62e-07    1.45e-05    4.35e-07
Gmb      4.65e-05    3.75e-07    3.70e-07    3.19e-05    2.50e-06
Cbd:     3.70e-15    4.61e-17    4.64e-17    2.98e-15    3.55e-15
Cbs:     4.61e-15    5.22e-17    5.22e-17    4.51e-15    5.14e-15

Name:      mp1         mp7         mp8
Model: p_11_sprvt  p_11_sprvt  p_11_sprvt
Id:     -1.11e-06   -2.22e-06   -1.25e-04
Vgs:    -1.88e-01   -5.42e-01   -5.42e-01
Vds:    -4.45e-01   -3.12e-01   -5.42e-01
Vbs:     0.00e+00    0.00e+00    0.00e+00
Vth:    -2.07e-01   -2.05e-01   -2.08e-01
Vdsat:  -5.03e-02   -2.79e-01   -2.83e-01
Gm:      2.63e-05    1.11e-05    6.51e-04
Gds:     4.43e-07    1.85e-06    2.83e-05
Gmb      2.48e-06    1.22e-06    5.89e-05
Cbd:     3.59e-15    1.29e-16    5.68e-15
Cbs:     5.14e-15    1.68e-16    8.58e-15



Date: Sun Jan 08 20:07:16 2023
Total elapsed time: 0.209 seconds.

tnom = 27
temp = 27
method = trap
totiter = 22
traniter = 0
tranpoints = 0
accept = 0
rejected = 0
matrix size = 30
fillins = 14
solver = Normal
Matrix Compiler1:     158 opcodes
Matrix Compiler2: 3.02 KB object code size
