Circuit: * D:\VUB\MA1\Analog Electronics\Analog_electronics_project\LTSpice\final_project.asc

Warning: No WPE as none of SCA, SCB, SCC, SC is given and/or SC not positive.
Warning: LTspice uses BSIM4 version 4.6.1. Your model specified an unrecognized version number: 4.5000e+00
Warning:  Acde = 0.0146993 is too small.
Warning: No WPE as none of SCA, SCB, SCC, SC is given and/or SC not positive.
Warning: LTspice uses BSIM4 version 4.6.1. Your model specified an unrecognized version number: 4.5000e+00
Warning:  Acde = 0.0146993 is too small.
Warning: No WPE as none of SCA, SCB, SCC, SC is given and/or SC not positive.
Warning: LTspice uses BSIM4 version 4.6.1. Your model specified an unrecognized version number: 4.5000e+00
Warning:  Acde = 0.0146993 is too small.
Warning: No WPE as none of SCA, SCB, SCC, SC is given and/or SC not positive.
Warning: LTspice uses BSIM4 version 4.6.1. Your model specified an unrecognized version number: 4.5000e+00
Warning: No WPE as none of SCA, SCB, SCC, SC is given and/or SC not positive.
Warning: LTspice uses BSIM4 version 4.6.1. Your model specified an unrecognized version number: 4.5000e+00
Warning: No WPE as none of SCA, SCB, SCC, SC is given and/or SC not positive.
Warning: LTspice uses BSIM4 version 4.6.1. Your model specified an unrecognized version number: 4.5000e+00
Warning: No WPE as none of SCA, SCB, SCC, SC is given and/or SC not positive.
Warning: LTspice uses BSIM4 version 4.6.1. Your model specified an unrecognized version number: 4.5000e+00
Warning: No WPE as none of SCA, SCB, SCC, SC is given and/or SC not positive.
Warning: LTspice uses BSIM4 version 4.6.1. Your model specified an unrecognized version number: 4.5000e+00
Direct Newton iteration for .op point succeeded.
Semiconductor Device Operating Points:
                        --- BSIM4 MOSFETS ---
Name:      mn6         mn3         mn4         mp5         mp2
Model: n_11_sprvt  n_11_sprvt  n_11_sprvt  p_11_sprvt  p_11_sprvt
Id:      1.16e-05    1.22e-06    1.22e-06   -1.16e-05   -1.22e-06
Vgs:     3.54e-01    3.53e-01    3.53e-01   -5.44e-01   -1.96e-01
Vds:     6.25e-01    3.53e-01    3.54e-01   -4.75e-01   -2.43e-01
Vbs:     0.00e+00    0.00e+00    0.00e+00    0.00e+00    0.00e+00
Vth:     3.49e-01    5.92e-02    5.92e-02   -2.08e-01   -2.05e-01
Vdsat:   6.52e-02    2.08e-01    2.08e-01   -2.78e-01   -5.34e-02
Gm:      1.92e-04    1.08e-05    1.08e-05    6.07e-05    2.87e-05
Gds:     1.14e-05    4.79e-07    4.79e-07    3.29e-06    7.91e-07
Gmb      1.49e-05    3.86e-07    3.86e-07    6.43e-06    2.65e-06
Cbd:     3.10e-16    4.60e-17    4.60e-17    5.68e-16    4.10e-15
Cbs:     3.94e-16    5.22e-17    5.22e-17    8.24e-16    5.14e-15

Name:      mp1         mp7         mp8
Model: p_11_sprvt  p_11_sprvt  p_11_sprvt
Id:     -1.22e-06   -2.45e-06   -2.00e-05
Vgs:    -1.96e-01   -5.44e-01   -5.44e-01
Vds:    -2.43e-01   -5.04e-01   -5.44e-01
Vbs:     0.00e+00    0.00e+00    0.00e+00
Vth:    -2.05e-01   -2.07e-01   -2.08e-01
Vdsat:  -5.34e-02   -2.79e-01   -2.79e-01
Gm:      2.87e-05    1.28e-05    1.04e-04
Gds:     7.90e-07    6.38e-07    4.49e-06
Gmb      2.65e-06    1.40e-06    1.06e-05
Cbd:     4.10e-15    1.16e-16    9.17e-16
Cbs:     5.14e-15    1.68e-16    1.38e-15



Date: Mon Jan 09 20:59:37 2023
Total elapsed time: 0.150 seconds.

tnom = 27
temp = 27
method = trap
totiter = 19
traniter = 0
tranpoints = 0
accept = 0
rejected = 0
matrix size = 30
fillins = 14
solver = Normal
Matrix Compiler1:     158 opcodes
Matrix Compiler2: 3.02 KB object code size
