Circuit: * D:\VUB\MA1\Analog Electronics\Analog_electronics_project\LTSpice\final_project.asc

Warning: No WPE as none of SCA, SCB, SCC, SC is given and/or SC not positive.
Warning: LTspice uses BSIM4 version 4.6.1. Your model specified an unrecognized version number: 4.5000e+00
Warning:  Acde = 0.0146993 is too small.
Warning: No WPE as none of SCA, SCB, SCC, SC is given and/or SC not positive.
Warning: LTspice uses BSIM4 version 4.6.1. Your model specified an unrecognized version number: 4.5000e+00
Warning:  Acde = 0.0146993 is too small.
Warning: No WPE as none of SCA, SCB, SCC, SC is given and/or SC not positive.
Warning: LTspice uses BSIM4 version 4.6.1. Your model specified an unrecognized version number: 4.5000e+00
Warning:  Acde = 0.0146993 is too small.
Warning: No WPE as none of SCA, SCB, SCC, SC is given and/or SC not positive.
Warning: LTspice uses BSIM4 version 4.6.1. Your model specified an unrecognized version number: 4.5000e+00
Warning: No WPE as none of SCA, SCB, SCC, SC is given and/or SC not positive.
Warning: LTspice uses BSIM4 version 4.6.1. Your model specified an unrecognized version number: 4.5000e+00
Warning: No WPE as none of SCA, SCB, SCC, SC is given and/or SC not positive.
Warning: LTspice uses BSIM4 version 4.6.1. Your model specified an unrecognized version number: 4.5000e+00
Warning: No WPE as none of SCA, SCB, SCC, SC is given and/or SC not positive.
Warning: LTspice uses BSIM4 version 4.6.1. Your model specified an unrecognized version number: 4.5000e+00
Warning: No WPE as none of SCA, SCB, SCC, SC is given and/or SC not positive.
Warning: LTspice uses BSIM4 version 4.6.1. Your model specified an unrecognized version number: 4.5000e+00
Early termination of direct N-R iteration.
Direct Newton iteration failed to find .op point.  (Use ".option noopiter" to skip.)
Starting Gmin stepping
Gmin = 10
Gmin = 1.07374
Gmin = 0.115292
Gmin = 0.0123794
Gmin = 0.00132923
Gmin = 0.000142725
Gmin = 1.5325e-005
Gmin = 1.6455e-006
Gmin = 1.76685e-007
Gmin = 1.89714e-008
Gmin = 2.03704e-009
Gmin = 2.18725e-010
Gmin = 2.34854e-011
Gmin = 2.52173e-012
Gmin = 2.70769e-013
Gmin = 0
Gmin stepping succeeded in finding the operating point.

Semiconductor Device Operating Points:
                        --- BSIM4 MOSFETS ---
Name:      mn6         mn3         mn4         mp5         mp2
Model: n_11_sprvt  n_11_sprvt  n_11_sprvt  p_11_sprvt  p_11_sprvt
Id:      3.44e-05    1.73e-05    1.65e-05   -3.44e-05   -1.74e-05
Vgs:     3.71e-01    3.96e-01    3.96e-01   -4.83e-01   -3.49e-01
Vds:     1.97e-05    3.96e-01    3.71e-01   -1.10e+00   -5.78e-01
Vbs:     0.00e+00    0.00e+00    0.00e+00    0.00e+00    0.00e+00
Vth:     2.91e-01    4.14e-01    4.16e-01   -3.38e-01   -2.08e-01
Vdsat:   8.86e-02    7.98e-02    7.92e-02   -1.51e-01   -1.34e-01
Gm:      4.03e-04    2.19e-04    2.12e-04    2.56e-04    1.91e-04
Gds:     1.77e+00    3.04e-05    3.00e-05    2.43e-05    3.78e-06
Gmb      3.76e-05    1.29e-05    1.24e-05    2.03e-05    1.79e-05
Cbd:     2.44e-12    2.60e-16    2.62e-16    1.77e-16    3.31e-15
Cbs:     2.44e-12    3.06e-16    3.06e-16    3.28e-16    5.09e-15

Name:      mp1         mp7         mp8
Model: p_11_sprvt  p_11_sprvt  p_11_sprvt
Id:     -1.73e-05   -3.47e-05   -2.00e-05
Vgs:    -3.49e-01   -4.83e-01   -4.83e-01
Vds:    -5.52e-01   -1.51e-01   -4.83e-01
Vbs:     0.00e+00    0.00e+00    0.00e+00
Vth:    -2.08e-01   -2.05e-01   -3.65e-01
Vdsat:  -1.35e-01   -2.37e-01   -1.34e-01
Gm:      1.90e-04    1.78e-04    1.76e-04
Gds:     3.89e-06    1.30e-04    2.34e-05
Gmb      1.78e-05    1.80e-05    1.54e-05
Cbd:     3.36e-15    4.10e-15    2.27e-16
Cbs:     5.09e-15    4.76e-15    3.28e-16



Date: Thu Dec 29 20:06:37 2022
Total elapsed time: 0.083 seconds.

tnom = 27
temp = 27
method = trap
totiter = 354
traniter = 0
tranpoints = 0
accept = 0
rejected = 0
matrix size = 30
fillins = 14
solver = Normal
Matrix Compiler1:     161 opcodes
Matrix Compiler2: off  [0.2]/0.3/0.3

