Circuit: * D:\VUB\MA1\Analog Electronics\Analog_electronics_project\LTSpice\final_project.asc

Warning: No WPE as none of SCA, SCB, SCC, SC is given and/or SC not positive.
Warning: LTspice uses BSIM4 version 4.6.1. Your model specified an unrecognized version number: 4.5000e+00
Warning:  Acde = 0.0146993 is too small.
Warning: No WPE as none of SCA, SCB, SCC, SC is given and/or SC not positive.
Warning: LTspice uses BSIM4 version 4.6.1. Your model specified an unrecognized version number: 4.5000e+00
Warning:  Acde = 0.0146993 is too small.
Warning: No WPE as none of SCA, SCB, SCC, SC is given and/or SC not positive.
Warning: LTspice uses BSIM4 version 4.6.1. Your model specified an unrecognized version number: 4.5000e+00
Warning:  Acde = 0.0146993 is too small.
Warning: No WPE as none of SCA, SCB, SCC, SC is given and/or SC not positive.
Warning: LTspice uses BSIM4 version 4.6.1. Your model specified an unrecognized version number: 4.5000e+00
Warning: No WPE as none of SCA, SCB, SCC, SC is given and/or SC not positive.
Warning: LTspice uses BSIM4 version 4.6.1. Your model specified an unrecognized version number: 4.5000e+00
Warning: No WPE as none of SCA, SCB, SCC, SC is given and/or SC not positive.
Warning: LTspice uses BSIM4 version 4.6.1. Your model specified an unrecognized version number: 4.5000e+00
Warning: No WPE as none of SCA, SCB, SCC, SC is given and/or SC not positive.
Warning: LTspice uses BSIM4 version 4.6.1. Your model specified an unrecognized version number: 4.5000e+00
Warning: No WPE as none of SCA, SCB, SCC, SC is given and/or SC not positive.
Warning: LTspice uses BSIM4 version 4.6.1. Your model specified an unrecognized version number: 4.5000e+00
Direct Newton iteration for .op point succeeded.
Semiconductor Device Operating Points:
                        --- BSIM4 MOSFETS ---
Name:      mn6         mn3         mn4         mp5         mp2
Model: n_11_sprvt  n_11_sprvt  n_11_sprvt  p_11_sprvt  p_11_sprvt
Id:      1.16e-05    1.12e-06    1.12e-06   -1.16e-05   -1.12e-06
Vgs:     3.45e-01    3.44e-01    3.44e-01   -5.44e-01   -1.88e-01
Vds:     7.90e-01    3.44e-01    3.45e-01   -3.10e-01   -4.44e-01
Vbs:     0.00e+00    0.00e+00    0.00e+00    0.00e+00    0.00e+00
Vth:     3.72e-01    5.90e-02    5.90e-02   -2.06e-01   -2.07e-01
Vdsat:   6.32e-02    1.99e-01    1.99e-01   -2.80e-01   -5.05e-02
Gm:      1.78e-04    1.03e-05    1.03e-05    5.71e-05    2.67e-05
Gds:     1.32e-05    4.48e-07    4.47e-07    9.73e-06    4.49e-07
Gmb      1.37e-05    3.77e-07    3.77e-07    6.12e-06    2.51e-06
Cbd:     2.62e-16    4.61e-17    4.61e-17    6.75e-16    3.59e-15
Cbs:     3.48e-16    5.22e-17    5.22e-17    8.85e-16    5.14e-15

Name:      mp1         mp7         mp8
Model: p_11_sprvt  p_11_sprvt  p_11_sprvt
Id:     -1.12e-06   -2.25e-06   -2.00e-05
Vgs:    -1.88e-01   -5.44e-01   -5.44e-01
Vds:    -4.44e-01   -3.12e-01   -5.44e-01
Vbs:     0.00e+00    0.00e+00    0.00e+00
Vth:    -2.07e-01   -2.05e-01   -2.08e-01
Vdsat:  -5.05e-02   -2.81e-01   -2.79e-01
Gm:      2.67e-05    1.11e-05    1.04e-04
Gds:     4.49e-07    1.89e-06    4.49e-06
Gmb      2.51e-06    1.23e-06    1.06e-05
Cbd:     3.59e-15    1.30e-16    9.17e-16
Cbs:     5.14e-15    1.68e-16    1.38e-15



Date: Mon Jan 09 21:09:17 2023
Total elapsed time: 0.119 seconds.

tnom = 27
temp = 27
method = trap
totiter = 20
traniter = 0
tranpoints = 0
accept = 0
rejected = 0
matrix size = 30
fillins = 14
solver = Normal
Matrix Compiler1:     158 opcodes
Matrix Compiler2: 3.02 KB object code size
