Circuit: * D:\VUB\MA1\Analog Electronics\Analog_electronics_project\LTSpice\final_project.asc

Warning: No WPE as none of SCA, SCB, SCC, SC is given and/or SC not positive.
Warning: LTspice uses BSIM4 version 4.6.1. Your model specified an unrecognized version number: 4.5000e+00
Warning:  Acde = 0.0146993 is too small.
Warning: No WPE as none of SCA, SCB, SCC, SC is given and/or SC not positive.
Warning: LTspice uses BSIM4 version 4.6.1. Your model specified an unrecognized version number: 4.5000e+00
Warning:  Acde = 0.0146993 is too small.
Warning: No WPE as none of SCA, SCB, SCC, SC is given and/or SC not positive.
Warning: LTspice uses BSIM4 version 4.6.1. Your model specified an unrecognized version number: 4.5000e+00
Warning:  Acde = 0.0146993 is too small.
Warning: No WPE as none of SCA, SCB, SCC, SC is given and/or SC not positive.
Warning: LTspice uses BSIM4 version 4.6.1. Your model specified an unrecognized version number: 4.5000e+00
Warning: No WPE as none of SCA, SCB, SCC, SC is given and/or SC not positive.
Warning: LTspice uses BSIM4 version 4.6.1. Your model specified an unrecognized version number: 4.5000e+00
Warning: No WPE as none of SCA, SCB, SCC, SC is given and/or SC not positive.
Warning: LTspice uses BSIM4 version 4.6.1. Your model specified an unrecognized version number: 4.5000e+00
Warning: No WPE as none of SCA, SCB, SCC, SC is given and/or SC not positive.
Warning: LTspice uses BSIM4 version 4.6.1. Your model specified an unrecognized version number: 4.5000e+00
Warning: No WPE as none of SCA, SCB, SCC, SC is given and/or SC not positive.
Warning: LTspice uses BSIM4 version 4.6.1. Your model specified an unrecognized version number: 4.5000e+00
Direct Newton iteration for .op point succeeded.
Semiconductor Device Operating Points:
                        --- BSIM4 MOSFETS ---
Name:      mn6         mn3         mn4         mp5         mp2
Model: n_11_sprvt  n_11_sprvt  n_11_sprvt  p_11_sprvt  p_11_sprvt
Id:      8.28e-07    5.09e-07    5.09e-07   -8.28e-07   -5.09e-07
Vgs:     2.74e-01    2.73e-01    2.73e-01   -5.40e-01   -2.54e-01
Vds:     1.10e+00    2.73e-01    2.74e-01   -6.98e-05   -5.80e-01
Vbs:     0.00e+00    0.00e+00    0.00e+00    0.00e+00    0.00e+00
Vth:     7.76e-02    5.62e-02    5.62e-02   -2.03e-01   -2.09e-01
Vdsat:   1.16e-01    1.33e-01    1.33e-01   -2.88e-01   -7.39e-02
Gm:      1.08e-05    6.56e-06    6.56e-06    5.94e-06    9.09e-06
Gds:     1.72e-07    2.93e-07    2.92e-07    2.90e-02    1.37e-07
Gmb      6.58e-07    2.87e-07    2.87e-07    7.32e-07    9.72e-07
Cbd:     5.71e-17    1.74e-17    1.74e-17    3.37e-13    3.83e-16
Cbs:     7.96e-17    1.86e-17    1.86e-17    3.37e-13    5.85e-16

Name:      mp1         mp7         mp8
Model: p_11_sprvt  p_11_sprvt  p_11_sprvt
Id:     -5.09e-07   -1.02e-06   -4.90e-03
Vgs:    -2.54e-01   -5.40e-01   -5.40e-01
Vds:    -5.81e-01   -2.46e-01   -5.40e-01
Vbs:     0.00e+00    0.00e+00    0.00e+00
Vth:    -2.09e-01   -2.02e-01   -2.08e-01
Vdsat:  -7.39e-02   -2.88e-01   -2.84e-01
Gm:      9.10e-06    4.74e-06    2.56e-02
Gds:     1.37e-07    1.68e-06    1.12e-03
Gmb      9.72e-07    4.85e-07    2.22e-03
Cbd:     3.82e-16    6.43e-17    2.23e-13
Cbs:     5.85e-16    7.84e-17    3.37e-13



Date: Mon Jan 02 21:35:25 2023
Total elapsed time: 0.086 seconds.

tnom = 27
temp = 27
method = trap
totiter = 17
traniter = 0
tranpoints = 0
accept = 0
rejected = 0
matrix size = 30
fillins = 14
solver = Normal
Matrix Compiler1:     159 opcodes
Matrix Compiler2: 3.02 KB object code size
