Circuit: * D:\VUB\MA1\Analog Electronics\Analog_electronics_project\LTSpice\final_project.asc

Warning: No WPE as none of SCA, SCB, SCC, SC is given and/or SC not positive.
Warning: LTspice uses BSIM4 version 4.6.1. Your model specified an unrecognized version number: 4.5000e+00
Warning:  Acde = 0.0146993 is too small.
Warning: No WPE as none of SCA, SCB, SCC, SC is given and/or SC not positive.
Warning: LTspice uses BSIM4 version 4.6.1. Your model specified an unrecognized version number: 4.5000e+00
Warning:  Acde = 0.0146993 is too small.
Warning: No WPE as none of SCA, SCB, SCC, SC is given and/or SC not positive.
Warning: LTspice uses BSIM4 version 4.6.1. Your model specified an unrecognized version number: 4.5000e+00
Warning:  Acde = 0.0146993 is too small.
Warning: No WPE as none of SCA, SCB, SCC, SC is given and/or SC not positive.
Warning: LTspice uses BSIM4 version 4.6.1. Your model specified an unrecognized version number: 4.5000e+00
Warning: No WPE as none of SCA, SCB, SCC, SC is given and/or SC not positive.
Warning: LTspice uses BSIM4 version 4.6.1. Your model specified an unrecognized version number: 4.5000e+00
Warning: No WPE as none of SCA, SCB, SCC, SC is given and/or SC not positive.
Warning: LTspice uses BSIM4 version 4.6.1. Your model specified an unrecognized version number: 4.5000e+00
Warning: No WPE as none of SCA, SCB, SCC, SC is given and/or SC not positive.
Warning: LTspice uses BSIM4 version 4.6.1. Your model specified an unrecognized version number: 4.5000e+00
Warning: No WPE as none of SCA, SCB, SCC, SC is given and/or SC not positive.
Warning: LTspice uses BSIM4 version 4.6.1. Your model specified an unrecognized version number: 4.5000e+00
Direct Newton iteration for .op point succeeded.
Semiconductor Device Operating Points:
                        --- BSIM4 MOSFETS ---
Name:      mn6         mn3         mn4         mp5         mp2
Model: n_11_sprvt  n_11_sprvt  n_11_sprvt  p_11_sprvt  p_11_sprvt
Id:      2.10e-06    2.75e-05    2.75e-05   -2.10e-06   -2.75e-05
Vgs:     2.81e-01    2.81e-01    2.81e-01   -2.55e-01   -3.08e-01
Vds:     2.52e-01    2.81e-01    2.81e-01   -8.48e-01   -6.27e-01
Vbs:     0.00e+00    0.00e+00    0.00e+00    0.00e+00    0.00e+00
Vth:     4.23e-01    4.02e-01    4.02e-01   -3.49e-01   -3.61e-01
Vdsat:   5.12e-02    5.56e-02    5.56e-02   -5.44e-02   -6.43e-02
Gm:      4.36e-05    5.30e-04    5.30e-04    3.27e-05    3.86e-04
Gds:     6.51e-06    7.88e-05    7.88e-05    3.13e-06    4.13e-05
Gmb      2.70e-06    3.55e-05    3.55e-05    2.80e-06    3.06e-05
Cbd:     3.15e-16    2.07e-15    2.07e-15    1.93e-16    1.63e-15
Cbs:     3.52e-16    2.34e-15    2.34e-15    3.28e-16    2.56e-15

Name:      mp1         mp7         mp8
Model: p_11_sprvt  p_11_sprvt  p_11_sprvt
Id:     -2.75e-05   -5.50e-05   -6.90e-07
Vgs:    -3.08e-01   -2.55e-01   -2.55e-01
Vds:    -6.27e-01   -1.92e-01   -2.55e-01
Vbs:     0.00e+00    0.00e+00    0.00e+00
Vth:    -3.61e-01   -3.86e-01   -3.76e-01
Vdsat:  -6.43e-02   -5.03e-02   -5.00e-02
Gm:      3.86e-04    9.88e-04    1.23e-05
Gds:     4.13e-05    1.57e-04    1.75e-06
Gmb      3.06e-05    7.14e-05    1.09e-06
Cbd:     1.63e-15    2.49e-14    2.62e-16
Cbs:     2.56e-15    3.00e-14    3.28e-16



Date: Sun Dec 25 11:46:35 2022
Total elapsed time: 0.156 seconds.

tnom = 27
temp = 27
method = trap
totiter = 10
traniter = 0
tranpoints = 0
accept = 0
rejected = 0
matrix size = 30
fillins = 14
solver = Normal
Matrix Compiler1:     158 opcodes
Matrix Compiler2: 3.02 KB object code size
