Circuit: * D:\VUB\MA1\Analog Electronics\Analog_electronics_project\LTSpice\final_project.asc

Warning: No WPE as none of SCA, SCB, SCC, SC is given and/or SC not positive.
Warning: LTspice uses BSIM4 version 4.6.1. Your model specified an unrecognized version number: 4.5000e+00
Warning:  Acde = 0.0146993 is too small.
Warning: No WPE as none of SCA, SCB, SCC, SC is given and/or SC not positive.
Warning: LTspice uses BSIM4 version 4.6.1. Your model specified an unrecognized version number: 4.5000e+00
Warning:  Acde = 0.0146993 is too small.
Warning: No WPE as none of SCA, SCB, SCC, SC is given and/or SC not positive.
Warning: LTspice uses BSIM4 version 4.6.1. Your model specified an unrecognized version number: 4.5000e+00
Warning:  Acde = 0.0146993 is too small.
Warning: No WPE as none of SCA, SCB, SCC, SC is given and/or SC not positive.
Warning: LTspice uses BSIM4 version 4.6.1. Your model specified an unrecognized version number: 4.5000e+00
Warning: No WPE as none of SCA, SCB, SCC, SC is given and/or SC not positive.
Warning: LTspice uses BSIM4 version 4.6.1. Your model specified an unrecognized version number: 4.5000e+00
Warning: No WPE as none of SCA, SCB, SCC, SC is given and/or SC not positive.
Warning: LTspice uses BSIM4 version 4.6.1. Your model specified an unrecognized version number: 4.5000e+00
Warning: No WPE as none of SCA, SCB, SCC, SC is given and/or SC not positive.
Warning: LTspice uses BSIM4 version 4.6.1. Your model specified an unrecognized version number: 4.5000e+00
Warning: No WPE as none of SCA, SCB, SCC, SC is given and/or SC not positive.
Warning: LTspice uses BSIM4 version 4.6.1. Your model specified an unrecognized version number: 4.5000e+00
Direct Newton iteration for .op point succeeded.
Semiconductor Device Operating Points:
                        --- BSIM4 MOSFETS ---
Name:      mn6         mn3         mn4         mp5         mp2
Model: n_11_sprvt  n_11_sprvt  n_11_sprvt  p_11_sprvt  p_11_sprvt
Id:      1.84e-05    2.65e-05    2.65e-05   -1.84e-05   -2.65e-05
Vgs:     3.22e-01    3.22e-01    3.22e-01   -1.40e+00   -4.21e-01
Vds:     1.08e+00    3.22e-01    3.22e-01   -2.10e-02   -6.99e-01
Vbs:     0.00e+00    0.00e+00    0.00e+00    0.00e+00    0.00e+00
Vth:     3.72e-01    1.85e-01    1.85e-01   -3.28e-01   -2.56e-01
Vdsat:   6.97e-02    9.74e-02    9.74e-02   -8.50e-01   -1.59e-01
Gm:      2.37e-04    4.19e-04    4.19e-04    7.22e-06    2.44e-04
Gds:     2.41e-05    1.50e-05    1.50e-05    8.69e-04    7.14e-06
Gmb      1.71e-05    2.78e-05    2.78e-05    2.03e-06    2.28e-05
Cbd:     2.13e-16    8.15e-16    8.15e-16    5.13e-16    9.45e-16
Cbs:     3.06e-16    9.37e-16    9.37e-16    5.24e-16    1.54e-15

Name:      mp1         mp7         mp8
Model: p_11_sprvt  p_11_sprvt  p_11_sprvt
Id:     -2.65e-05   -5.30e-05   -5.00e-04
Vgs:    -4.21e-01   -1.40e+00   -1.40e+00
Vds:    -6.99e-01   -7.90e-02   -1.40e+00
Vbs:     0.00e+00    0.00e+00    0.00e+00
Vth:    -2.56e-01   -4.07e-01   -3.26e-01
Vdsat:  -1.59e-01   -6.67e-01   -8.51e-01
Gm:      2.44e-04    2.31e-05    5.43e-04
Gds:     7.14e-06    6.45e-04    7.49e-05
Gmb      2.28e-05    4.84e-06    7.92e-05
Cbd:     9.45e-16    2.61e-16    2.57e-16
Cbs:     1.54e-15    2.83e-16    5.24e-16



Date: Sat Dec 24 15:45:56 2022
Total elapsed time: 0.117 seconds.

tnom = 27
temp = 27
method = trap
totiter = 8
traniter = 0
tranpoints = 0
accept = 0
rejected = 0
matrix size = 30
fillins = 14
solver = Normal
Matrix Compiler1:     158 opcodes
Matrix Compiler2: 3.02 KB object code size
